! Created Tue Apr  6 18:30:13 2021
# ghz S ri R 50
! 1 Port Network Data from SP1.SP block
! freq  reS11  imS11  
!     
                 0                 1                  0
               0.1       0.996067682      -0.0625847783
               0.2       0.984454124       -0.123710154
               0.3        0.96568853          -0.182028
               0.4       0.940587359       -0.236395387
               0.5       0.910169838       -0.285938288
               0.6       0.875562973       -0.330079465
               0.7       0.837910948       -0.368532483
               0.8       0.798300022       -0.401269357
               0.9       0.757704807       -0.428471974
                 1         0.7169568       -0.450477243
               1.1       0.676732451       -0.467723894
               1.2       0.637556186       -0.480706039
               1.3       0.599813365       -0.489936008
               1.4       0.563768731       -0.495916877
               1.5       0.529586853        -0.49912385
               1.6       0.497352223       -0.499992989
               1.7       0.467087547       -0.498915595
               1.8       0.438769549       -0.496236669
               1.9       0.412342079       -0.492256121
                 2       0.387726637       -0.487231661
               2.1       0.364830591       -0.481382624
               2.2       0.343553428       -0.474894167
               2.3       0.323791386       -0.467921494
               2.4         0.3054408       -0.460593875
               2.5       0.288400439        -0.45301835
               2.6       0.272573068       -0.445283046
               2.7       0.257866432       -0.437460096
               2.8       0.244193807       -0.429608184
               2.9       0.231474252        -0.42177473
                 3       0.219632627       -0.413997749
               3.1       0.208599474       -0.406307437
               3.2        0.19831079       -0.398727502
               3.3       0.188707741       -0.391276283
               3.4       0.179736342       -0.383967693
               3.5       0.171347123       -0.376812004
               3.6       0.163494788       -0.369816498
               3.7       0.156137889       -0.362986017
               3.8       0.149238507       -0.356323413
               3.9       0.142761955       -0.349829929
                 4       0.136676498       -0.343505507
               4.1       0.130953095       -0.337349051
               4.2       0.125565155       -0.331358638
               4.3       0.120488324         -0.3255317
               4.4       0.115700277       -0.319865164
               4.5       0.111180543       -0.314355578
               4.6       0.106910329       -0.308999208
               4.7       0.102872377       -0.303792119
               4.8      0.0990508216        -0.29873024
               4.9      0.0954310653       -0.293809423
                 5      0.0919996684       -0.289025482
               5.1      0.0887442443       -0.284374231
               5.2      0.0856533682       -0.279851512
               5.3      0.0827164923       -0.275453216
               5.4      0.0799238704       -0.271175304
               5.5      0.0772664889       -0.267013817
               5.6      0.0747360039        -0.26296489
               5.7      0.0723246852       -0.259024758
               5.8      0.0700253647       -0.255189759
               5.9      0.0678313897       -0.251456343
                 6      0.0657365802       -0.247821069
               6.1      0.0637351912        -0.24428061
               6.2      0.0618218769       -0.240831751
               6.3      0.0599916589       -0.237471387
               6.4      0.0582398976       -0.234196524
               6.5      0.0565622651       -0.231004275
               6.6      0.0549547212        -0.22789186
               6.7      0.0534134916         -0.2248566
               6.8      0.0519350471       -0.221895917
               6.9      0.0505160859       -0.219007331
                 7      0.0491535159       -0.216188454
               7.1      0.0478444398       -0.213436992
               7.2      0.0465861404       -0.210750734
               7.3      0.0453760681       -0.208127558
               7.4      0.0442118284       -0.205565422
               7.5      0.0430911712        -0.20306236
               7.6      0.0420119806       -0.200616485
               7.7      0.0409722656        -0.19822598
               7.8      0.0399701515       -0.195889097
               7.9      0.0390038717       -0.193604157
                 8      0.0380717608       -0.191369543
               8.1      0.0371722479       -0.189183699
               8.2      0.0363038499       -0.187045129
               8.3      0.0354651659       -0.184952394
               8.4      0.0346548721       -0.182904106
               8.5      0.0338717167       -0.180898932
               8.6      0.0331145152       -0.178935586
               8.7      0.0323821463       -0.177012833
               8.8       0.031673548       -0.175129479
               8.9      0.0309877136       -0.173284377
                 9      0.0303236888        -0.17147642
               9.1       0.029680568       -0.169704543
               9.2      0.0290574918       -0.167967717
               9.3       0.028453644       -0.166264952
               9.4      0.0278682491       -0.164595291
               9.5        0.02730057       -0.162957813
               9.6      0.0267499055       -0.161351629
               9.7      0.0262155886       -0.159775879
               9.8      0.0256969843       -0.158229736
               9.9      0.0251934878       -0.156712399
                10       0.024704523       -0.155223096
