! Created Thu Dec 17 00:04:38 2020
# ghz S ri R 50
! 1 Port Network Data from SP1.SP block
! freq  reS11  imS11  
!     
                 0                 0                  0
              0.01   -0.000145251161      -0.0108598204
              0.02   -0.000580754874      -0.0217091038
              0.03    -0.00130576288      -0.0325373431
              0.04    -0.00231903161      -0.0433340901
              0.05    -0.00361882742      -0.0540889849
              0.06    -0.00520293394      -0.0647917846
              0.07    -0.00706866127       -0.075432391
              0.08     -0.0092128573      -0.0860008778
              0.09     -0.0116319206      -0.0964875166
               0.1     -0.0143218153       -0.106882802
              0.11     -0.0172780874       -0.117177475
              0.12     -0.0204958827       -0.127362546
              0.13     -0.0239699658       -0.137429314
              0.14     -0.0276947409       -0.147369387
              0.15      -0.031664273       -0.157174702
              0.16     -0.0358723108       -0.166837535
              0.17     -0.0403123093        -0.17635052
              0.18     -0.0449774542        -0.18570666
              0.19     -0.0498606861       -0.194899336
               0.2     -0.0549547249       -0.203922318
              0.21     -0.0602520949        -0.21276977
              0.22     -0.0657451496       -0.221436258
              0.23     -0.0714260962       -0.229916748
              0.24     -0.0772870206       -0.238206613
              0.25     -0.0833199106       -0.246301631
              0.26     -0.0895166807       -0.254197982
              0.27     -0.0958691942       -0.261892247
              0.28      -0.102369286       -0.269381403
              0.29      -0.109008784       -0.276662818
               0.3      -0.115779529        -0.28373424
              0.31      -0.122673398       -0.290593796
              0.32      -0.129682316       -0.297239975
              0.33      -0.136798283       -0.303671622
              0.34      -0.144013383        -0.30988793
              0.35      -0.151319802       -0.315888419
              0.36      -0.158709845       -0.321672935
              0.37      -0.166175946       -0.327241626
              0.38      -0.173710683        -0.33259494
              0.39      -0.181306785         -0.3377336
               0.4      -0.188957147       -0.342658598
              0.41      -0.196654838       -0.347371179
              0.42      -0.204393104       -0.351872823
              0.43      -0.212165382       -0.356165237
              0.44        -0.2199653       -0.360250334
              0.45      -0.227786686       -0.364130224
              0.46      -0.235623568       -0.367807199
              0.47      -0.243470181       -0.371283715
              0.48      -0.251320967       -0.374562386
              0.49      -0.259170577       -0.377645964
               0.5       -0.26701387       -0.380537328
              0.51      -0.274845917       -0.383239473
              0.52      -0.282661996       -0.385755498
              0.53      -0.290457593       -0.388088591
              0.54      -0.298228401       -0.390242021
              0.55      -0.305970316       -0.392219127
              0.56      -0.313679433       -0.394023306
              0.57      -0.321352047       -0.395658003
              0.58      -0.328984646       -0.397126704
              0.59      -0.336573908       -0.398432924
               0.6      -0.344116696       -0.399580202
              0.61      -0.351610058       -0.400572091
              0.62      -0.359051214        -0.40141215
              0.63       -0.36643756       -0.402103938
              0.64      -0.373766657       -0.402651007
              0.65      -0.381036229       -0.403056897
              0.66      -0.388244156        -0.40332513
              0.67       -0.39538847       -0.403459203
              0.68      -0.402467349       -0.403462585
              0.69      -0.409479113       -0.403338713
               0.7      -0.416422215       -0.403090985
              0.71      -0.423295241       -0.402722761
              0.72        -0.4300969       -0.402237354
              0.73      -0.436826023       -0.401638033
              0.74      -0.443481553       -0.400928015
              0.75      -0.450062545       -0.400110467
              0.76      -0.456568157         -0.3991885
              0.77      -0.462997647        -0.39816517
              0.78      -0.469350368       -0.397043475
              0.79      -0.475625763       -0.395826355
               0.8      -0.481823361       -0.394516687
              0.81      -0.487942771       -0.393117291
              0.82      -0.493983681       -0.391630923
              0.83      -0.499945849       -0.390060277
              0.84      -0.505829104       -0.388407985
              0.85      -0.511633337       -0.386676614
              0.86      -0.517358502       -0.384868672
              0.87      -0.523004609         -0.3829866
              0.88      -0.528571722       -0.381032779
              0.89      -0.534059955       -0.379009527
               0.9      -0.539469468         -0.3769191
              0.91      -0.544800466       -0.374763691
              0.92      -0.550053195       -0.372545435
              0.93      -0.555227935       -0.370266403
              0.94      -0.560325007       -0.367928611
              0.95      -0.565344759       -0.365534011
              0.96      -0.570287571       -0.363084502
              0.97      -0.575153851       -0.360581923
              0.98      -0.579944031       -0.358028056
              0.99      -0.584658564       -0.355424631
                 1      -0.589297927       -0.352773322
              1.01      -0.593862614       -0.350075748
              1.02      -0.598353134        -0.34733348
              1.03      -0.602770015       -0.344548035
              1.04      -0.607113793       -0.341720879
              1.05      -0.611385021       -0.338853432
              1.06      -0.615584256       -0.335947064
              1.07      -0.619712068       -0.333003099
              1.08      -0.623769033       -0.330022815
              1.09      -0.627755731       -0.327007445
               1.1      -0.631672748       -0.323958181
              1.11      -0.635520673       -0.320876168
              1.12      -0.639300097       -0.317762514
              1.13      -0.643011611       -0.314618283
              1.14      -0.646655808       -0.311444504
              1.15      -0.650233278       -0.308242163
              1.16      -0.653744611       -0.305012212
              1.17      -0.657190394       -0.301755566
              1.18       -0.66057121       -0.298473105
              1.19      -0.663887637       -0.295165674
               1.2       -0.66714025       -0.291834086
              1.21      -0.670329617        -0.28847912
              1.22        -0.6734563       -0.285101527
              1.23      -0.676520855       -0.281702023
              1.24      -0.679523831       -0.278281297
              1.25      -0.682465767       -0.274840011
              1.26      -0.685347195       -0.271378796
              1.27      -0.688168639       -0.267898259
              1.28      -0.690930613       -0.264398977
              1.29      -0.693633621       -0.260881507
               1.3      -0.696278158       -0.257346377
              1.31      -0.698864707       -0.253794093
              1.32      -0.701393742       -0.250225139
              1.33      -0.703865725       -0.246639976
              1.34      -0.706281107       -0.243039043
              1.35      -0.708640328       -0.239422759
              1.36      -0.710943815       -0.235791522
              1.37      -0.713191984       -0.232145712
              1.38      -0.715385238       -0.228485689
              1.39      -0.717523967       -0.224811796
               1.4      -0.719608551       -0.221124358
              1.41      -0.721639353       -0.217423682
              1.42      -0.723616725       -0.213710062
              1.43      -0.725541007       -0.209983773
              1.44      -0.727412523       -0.206245077
              1.45      -0.729231585        -0.20249422
              1.46       -0.73099849       -0.198731436
              1.47      -0.732713523       -0.194956943
              1.48      -0.734376952       -0.191170948
              1.49      -0.735989034       -0.187373646
               1.5      -0.737550009       -0.183565219
              1.51      -0.739060104       -0.179745838
              1.52      -0.740519531       -0.175915663
              1.53      -0.741928488       -0.172074844
              1.54      -0.743287156        -0.16822352
              1.55      -0.744595703       -0.164361823
              1.56      -0.745854282       -0.160489873
              1.57      -0.747063029       -0.156607784
              1.58      -0.748222067        -0.15271566
              1.59        -0.7493315         -0.1488136
               1.6      -0.750391421       -0.144901691
              1.61      -0.751401903       -0.140980019
              1.62      -0.752363006        -0.13704866
              1.63      -0.753274773       -0.133107685
              1.64       -0.75413723        -0.12915716
              1.65      -0.754950389       -0.125197145
              1.66      -0.755714242       -0.121227695
              1.67      -0.756428769       -0.117248863
              1.68       -0.75709393       -0.113260697
              1.69      -0.757709668        -0.10926324
               1.7      -0.758275912       -0.105256535
              1.71      -0.758792571       -0.101240621
              1.72      -0.759259538      -0.0972155332
              1.73      -0.759676688      -0.0931813085
              1.74      -0.760043879      -0.0891379805
              1.75      -0.760360951      -0.0850855825
              1.76      -0.760627725      -0.0810241474
              1.77      -0.760844005      -0.0769537082
              1.78      -0.761009577      -0.0728742987
              1.79      -0.761124207      -0.0687859535
               1.8      -0.761187644       -0.064688709
              1.81      -0.761199616      -0.0605826034
              1.82      -0.761159834      -0.0564676775
              1.83      -0.761067989      -0.0523439752
              1.84      -0.760923751      -0.0482115439
              1.85      -0.760726773       -0.044070435
              1.86      -0.760476685      -0.0399207049
              1.87      -0.760173099      -0.0357624147
              1.88      -0.759815606      -0.0315956316
              1.89      -0.759403776      -0.0274204293
               1.9      -0.758937158      -0.0232368883
              1.91      -0.758415281      -0.0190450967
              1.92      -0.757837651      -0.0148451511
              1.93      -0.757203754       -0.010637157
              1.94      -0.756513052      -0.0064212295
              1.95      -0.755764989     -0.00219749423
              1.96      -0.754958981      0.00203391208
              1.97      -0.754094426      0.00627284077
              1.98      -0.753170698       0.0105191304
              1.99      -0.752187147        0.014772606
                 2        -0.7511431       0.0190330782
              2.01      -0.750037861       0.0233003422
              2.02      -0.748870711       0.0275741769
              2.03      -0.747640905       0.0318543441
              2.04      -0.746347676       0.0361405874
              2.05      -0.744990231       0.0404326309
              2.06      -0.743567754       0.0447301786
              2.07      -0.742079402       0.0490329128
              2.08      -0.740524309       0.0533404934
              2.09      -0.738901584       0.0576525563
               2.1      -0.737210309       0.0619687124
              2.11      -0.735449544       0.0662885461
              2.12      -0.733618319       0.0706116141
              2.13      -0.731715643       0.0749374439
              2.14      -0.729740496       0.0792655326
              2.15      -0.727691835       0.0835953448
              2.16       -0.72556859       0.0879263118
              2.17      -0.723369666       0.0922578294
              2.18      -0.721093943       0.0965892564
              2.19      -0.718740275        0.100919913
               2.2      -0.716307491        0.105249078
              2.21      -0.713794396        0.109575989
              2.22       -0.71119977        0.113899839
              2.23      -0.708522368        0.118219774
              2.24      -0.705760922        0.122534891
              2.25      -0.702914142        0.126844239
              2.26      -0.699980711         0.13114681
              2.27      -0.696959295        0.135441545
              2.28      -0.693848536        0.139727324
              2.29      -0.690647055         0.14400297
               2.3      -0.687353454        0.148267242
              2.31      -0.683966317        0.152518833
              2.32      -0.680484209        0.156756371
              2.33       -0.67690568         0.16097841
              2.34      -0.673229266        0.165183433
              2.35      -0.669453487        0.169369848
              2.36      -0.665576853         0.17353598
              2.37      -0.661597866        0.177680075
              2.38      -0.657515018        0.181800292
              2.39      -0.653326797        0.185894704
               2.4      -0.649031685        0.189961289
              2.41      -0.644628169        0.193997933
              2.42      -0.640114733        0.198002422
              2.43      -0.635489871        0.201972442
              2.44      -0.630752083        0.205905573
              2.45      -0.625899883        0.209799287
              2.46      -0.620931801        0.213650945
              2.47      -0.615846387        0.217457793
              2.48      -0.610642217        0.221216957
              2.49      -0.605317895        0.224925443
               2.5      -0.599872063         0.22858013
              2.51      -0.594303401        0.232177772
              2.52      -0.588610634        0.235714988
              2.53      -0.582792543        0.239188263
              2.54      -0.576847964        0.242593947
              2.55      -0.570775802        0.245928246
              2.56      -0.564575034        0.249187226
              2.57      -0.558244718        0.252366806
              2.58      -0.551784001        0.255462758
              2.59      -0.545192129        0.258470703
               2.6      -0.538468455        0.261386112
              2.61      -0.531612449        0.264204305
              2.62      -0.524623706        0.266920446
              2.63      -0.517501962        0.269529546
              2.64      -0.510247099        0.272026464
              2.65      -0.502859159        0.274405904
              2.66      -0.495338359        0.276662418
              2.67      -0.487685095        0.278790408
              2.68      -0.479899966        0.280784129
              2.69      -0.471983778        0.282637692
               2.7      -0.463937562        0.284345064
              2.71      -0.455762586        0.285900081
              2.72      -0.447460373        0.287296447
              2.73       -0.43903271        0.288527743
              2.74      -0.430481668        0.289587436
              2.75      -0.421809613        0.290468888
              2.76      -0.413019224        0.291165363
              2.77      -0.404113506        0.291670045
              2.78      -0.395095805        0.291976043
              2.79      -0.385969826        0.292076413
               2.8      -0.376739644        0.291964169
              2.81      -0.367409718          0.2916323
              2.82      -0.357984909        0.291073792
              2.83      -0.348470488        0.290281646
              2.84      -0.338872153          0.2892489
              2.85      -0.329196035        0.287968652
              2.86      -0.319448714        0.286434089
              2.87      -0.309637225        0.284638508
              2.88      -0.299769065        0.282575347
              2.89      -0.289852201        0.280238217
               2.9      -0.279895075        0.277620928
              2.91      -0.269906603        0.274717528
              2.92      -0.259896178        0.271522329
              2.93      -0.249873667        0.268029951
              2.94      -0.239849408        0.264235351
              2.95      -0.229834198        0.260133863
              2.96      -0.219839289        0.255721234
              2.97      -0.209876369        0.250993664
              2.98      -0.199957551        0.245947843
              2.99      -0.190095347        0.240580986
                 3      -0.180302653        0.234890877
              3.01      -0.170592714        0.228875901
              3.02      -0.160979099         0.22253508
              3.03      -0.151475667        0.215868109
              3.04       -0.14209653        0.208875391
              3.05      -0.132856009        0.201558063
              3.06      -0.123768595        0.193918025
              3.07      -0.114848898        0.185957971
              3.08      -0.106111601        0.177681404
              3.09      -0.097571402        0.169092658
               3.1     -0.0892429622        0.160196914
              3.11     -0.0811408471        0.151000208
              3.12     -0.0732794669        0.141509438
              3.13     -0.0656730157        0.131732364
              3.14     -0.0583354093        0.121677608
              3.15     -0.0512802226        0.111354641
              3.16     -0.0445206273        0.100773768
              3.17     -0.0380693291       0.0899461122
              3.18     -0.0319385072       0.0788835875
              3.19     -0.0261397541       0.0675988672
               3.2     -0.0206840184       0.0561053493
              3.21     -0.0155815499       0.0444171149
              3.22     -0.0108418477       0.0325488824
              3.23    -0.00647361226        0.020515957
              3.24    -0.00248470142      0.00833417537
              3.25     0.00111790886     -0.00398015239
              3.26     0.00432815891      -0.0164103054
              3.27     0.00714093441       -0.028939217
              3.28     0.00955208978       -0.041549542
              3.29      0.0115584659      -0.0542237263
               3.3      0.0131579016      -0.0669440771
              3.31      0.0143492394      -0.0796928342
              3.32      0.0151323251      -0.0924522414
              3.33       0.015508001       -0.105204617
              3.34      0.0154780935       -0.117932423
              3.35      0.0150453951       -0.130618334
              3.36      0.0142136405         -0.1432453
              3.37      0.0129874778       -0.155796612
              3.38      0.0113724347       -0.168255962
              3.39     0.00937488045       -0.180607493
               3.4     0.00700198348       -0.192835861
              3.41     0.00426166565        -0.20492627
              3.42     0.00116255339       -0.216864526
              3.43    -0.00228607372       -0.228637069
              3.44     -0.0060743365       -0.240231008
              3.45     -0.0101918112       -0.251634147
              3.46     -0.0146275857       -0.262835014
              3.47     -0.0193703161       -0.273822872
              3.48     -0.0244082837       -0.284587739
              3.49     -0.0297294513        -0.29512039
               3.5     -0.0353215192       -0.305412367
              3.51     -0.0411719791       -0.315455975
              3.52     -0.0472681682       -0.325244281
              3.53     -0.0535973194       -0.334771101
