! Created Mon Dec 21 16:40:58 2020
# ghz S ri R 50
! 2 Port Network Data from SP1.SP block
! freq  reS11  imS11  reS21  imS21  reS12  imS12  reS22  imS22  
!     
                 0                 0                  0                  1                  0                  1                  0                  0                  0
              0.02   -0.000580754874      -0.0217091038        0.999406611      -0.0267358001        0.999406611      -0.0267358001    -0.000580754874      -0.0217091038
              0.04    -0.00231903161      -0.0433340901        0.997630423      -0.0533883711        0.997630423      -0.0533883711     -0.00231903161      -0.0433340901
              0.06    -0.00520293394      -0.0647917846        0.994683301      -0.0798754277        0.994683301      -0.0798754277     -0.00520293394      -0.0647917846
              0.08     -0.0092128573      -0.0860008778        0.990584802        -0.10611655        0.990584802        -0.10611655      -0.0092128573      -0.0860008778
               0.1     -0.0143218153       -0.106882802        0.985361842        -0.13203406        0.985361842        -0.13203406      -0.0143218153       -0.106882802
              0.12     -0.0204958827       -0.127362546        0.979048256       -0.157553841        0.979048256       -0.157553841      -0.0204958827       -0.127362546
              0.14     -0.0276947409       -0.147369387        0.971684255       -0.182606063        0.971684255       -0.182606063      -0.0276947409       -0.147369387
              0.16     -0.0358723108       -0.166837535        0.963315786       -0.207125832        0.963315786       -0.207125832      -0.0358723108       -0.166837535
              0.18     -0.0449774542        -0.18570666        0.953993839       -0.231053718        0.953993839       -0.231053718      -0.0449774542        -0.18570666
               0.2     -0.0549547249       -0.203922318        0.943773688        -0.25433618        0.943773688        -0.25433618      -0.0549547249       -0.203922318
              0.22     -0.0657451496       -0.221436258        0.932714115       -0.276925873        0.932714115       -0.276925873      -0.0657451496       -0.221436258
              0.24     -0.0772870206       -0.238206613        0.920876614       -0.298781838        0.920876614       -0.298781838      -0.0772870206       -0.238206613
              0.26     -0.0895166807       -0.254197982        0.908324609       -0.319869589        0.908324609       -0.319869589      -0.0895166807       -0.254197982
              0.28      -0.102369286       -0.269381403        0.895122687       -0.340161085        0.895122687       -0.340161085       -0.102369286       -0.269381403
               0.3      -0.115779529        -0.28373424        0.881335877        -0.35963461        0.881335877        -0.35963461       -0.115779529        -0.28373424
              0.32      -0.129682316       -0.297239975        0.867028972       -0.378274576        0.867028972       -0.378274576       -0.129682316       -0.297239975
              0.34      -0.144013383        -0.30988793        0.852265913       -0.396071243        0.852265913       -0.396071243       -0.144013383        -0.30988793
              0.36      -0.158709845       -0.321672935        0.837109237       -0.413020379        0.837109237       -0.413020379       -0.158709845       -0.321672935
              0.38      -0.173710683        -0.33259494        0.821619592       -0.429122885        0.821619592       -0.429122885       -0.173710683        -0.33259494
               0.4      -0.188957147       -0.342658598        0.805855332       -0.444384367        0.805855332       -0.444384367       -0.188957147       -0.342658598
              0.42      -0.204393104       -0.351872823         0.78987217       -0.458814702         0.78987217       -0.458814702       -0.204393104       -0.351872823
              0.44        -0.2199653       -0.360250334        0.773722913       -0.472427579        0.773722913       -0.472427579         -0.2199653       -0.360250334
              0.46      -0.235623568       -0.367807199        0.757457257       -0.485240046        0.757457257       -0.485240046       -0.235623568       -0.367807199
              0.48      -0.251320967       -0.374562386        0.741121644       -0.497272057        0.741121644       -0.497272057       -0.251320967       -0.374562386
               0.5       -0.26701387       -0.380537328        0.724759173       -0.508546042        0.724759173       -0.508546042        -0.26701387       -0.380537328
              0.52      -0.282661996       -0.385755498        0.708409571       -0.519086479        0.708409571       -0.519086479       -0.282661996       -0.385755498
              0.54      -0.298228401       -0.390242021        0.692109195        -0.52891951        0.692109195        -0.52891951       -0.298228401       -0.390242021
              0.56      -0.313679433       -0.394023306        0.675891085       -0.538072569        0.675891085       -0.538072569       -0.313679433       -0.394023306
              0.58      -0.328984646       -0.397126704         0.65978504       -0.546574043         0.65978504       -0.546574043       -0.328984646       -0.397126704
               0.6      -0.344116696       -0.399580202        0.643817728       -0.554452969        0.643817728       -0.554452969       -0.344116696       -0.399580202
              0.62      -0.359051214        -0.40141215        0.628012807       -0.561738753        0.628012807       -0.561738753       -0.359051214        -0.40141215
              0.64      -0.373766657       -0.402651007        0.612391074       -0.568460927        0.612391074       -0.568460927       -0.373766657       -0.402651007
              0.66      -0.388244156        -0.40332513         0.59697062        -0.57464893         0.59697062        -0.57464893       -0.388244156        -0.40332513
              0.68      -0.402467349       -0.403462585        0.581766991       -0.580331925        0.581766991       -0.580331925       -0.402467349       -0.403462585
               0.7      -0.416422215       -0.403090985        0.566793355       -0.585538632        0.566793355       -0.585538632       -0.416422215       -0.403090985
              0.72        -0.4300969       -0.402237354        0.552060671       -0.590297199        0.552060671       -0.590297199         -0.4300969       -0.402237354
              0.74      -0.443481553       -0.400928015        0.537577859       -0.594635084        0.537577859       -0.594635084       -0.443481553       -0.400928015
              0.76      -0.456568157         -0.3991885        0.523351962       -0.598578969        0.523351962       -0.598578969       -0.456568157         -0.3991885
              0.78      -0.469350368       -0.397043475        0.509388306       -0.602154685        0.509388306       -0.602154685       -0.469350368       -0.397043475
               0.8      -0.481823361       -0.394516687        0.495690652       -0.605387157        0.495690652       -0.605387157       -0.481823361       -0.394516687
              0.82      -0.493983681       -0.391630923        0.482261345       -0.608300368        0.482261345       -0.608300368       -0.493983681       -0.391630923
              0.84      -0.505829104       -0.388407985        0.469101454       -0.610917328        0.469101454       -0.610917328       -0.505829104       -0.388407985
              0.86      -0.517358502       -0.384868672        0.456210896       -0.613260062        0.456210896       -0.613260062       -0.517358502       -0.384868672
              0.88      -0.528571722       -0.381032779        0.443588565       -0.615349608        0.443588565       -0.615349608       -0.528571722       -0.381032779
               0.9      -0.539469468         -0.3769191        0.431232442       -0.617206016        0.431232442       -0.617206016       -0.539469468         -0.3769191
              0.92      -0.550053195       -0.372545435        0.419139701        -0.61884836        0.419139701        -0.61884836       -0.550053195       -0.372545435
              0.94      -0.560325007       -0.367928611        0.407306807        -0.62029476        0.407306807        -0.62029476       -0.560325007       -0.367928611
              0.96      -0.570287571       -0.363084502        0.395729601       -0.621562397        0.395729601       -0.621562397       -0.570287571       -0.363084502
              0.98      -0.579944031       -0.358028056        0.384403387       -0.622667542        0.384403387       -0.622667542       -0.579944031       -0.358028056
                 1      -0.589297927       -0.352773322           0.373323       -0.623625588           0.373323       -0.623625588       -0.589297927       -0.352773322
              1.02      -0.598353134        -0.34733348        0.362482876       -0.624451075        0.362482876       -0.624451075       -0.598353134        -0.34733348
              1.04      -0.607113793       -0.341720879        0.351877111       -0.625157726        0.351877111       -0.625157726       -0.607113793       -0.341720879
              1.06      -0.615584256       -0.335947064        0.341499514       -0.625758481        0.341499514       -0.625758481       -0.615584256       -0.335947064
              1.08      -0.623769033       -0.330022815        0.331343658       -0.626265531        0.331343658       -0.626265531       -0.623769033       -0.330022815
               1.1      -0.631672748       -0.323958181        0.321402921       -0.626690353        0.321402921       -0.626690353       -0.631672748       -0.323958181
              1.12      -0.639300097       -0.317762514        0.311670524       -0.627043743        0.311670524       -0.627043743       -0.639300097       -0.317762514
              1.14      -0.646655808       -0.311444504        0.302139563       -0.627335853        0.302139563       -0.627335853       -0.646655808       -0.311444504
              1.16      -0.653744611       -0.305012212        0.292803042        -0.62757622        0.292803042        -0.62757622       -0.653744611       -0.305012212
              1.18       -0.66057121       -0.298473105        0.283653895       -0.627773805        0.283653895       -0.627773805        -0.66057121       -0.298473105
               1.2       -0.66714025       -0.291834086        0.274685009       -0.627937018        0.274685009       -0.627937018        -0.66714025       -0.291834086
              1.22        -0.6734563       -0.285101527        0.265889244       -0.628073755        0.265889244       -0.628073755         -0.6734563       -0.285101527
              1.24      -0.679523831       -0.278281297        0.257259445       -0.628191421        0.257259445       -0.628191421       -0.679523831       -0.278281297
              1.26      -0.685347195       -0.271378796         0.24878846       -0.628296962         0.24878846       -0.628296962       -0.685347195       -0.271378796
              1.28      -0.690930613       -0.264398977        0.240469149       -0.628396894        0.240469149       -0.628396894       -0.690930613       -0.264398977
               1.3      -0.696278158       -0.257346377        0.232294389       -0.628497324        0.232294389       -0.628497324       -0.696278158       -0.257346377
              1.32      -0.701393742       -0.250225139        0.224257087       -0.628603975        0.224257087       -0.628603975       -0.701393742       -0.250225139
              1.34      -0.706281107       -0.243039043        0.216350181       -0.628722213        0.216350181       -0.628722213       -0.706281107       -0.243039043
              1.36      -0.710943815       -0.235791522        0.208566642       -0.628857063        0.208566642       -0.628857063       -0.710943815       -0.235791522
              1.38      -0.715385238       -0.228485689         0.20089948       -0.629013235         0.20089948       -0.629013235       -0.715385238       -0.228485689
               1.4      -0.719608551       -0.221124358        0.193341742       -0.629195139        0.193341742       -0.629195139       -0.719608551       -0.221124358
              1.42      -0.723616725       -0.213710062        0.185886511       -0.629406903        0.185886511       -0.629406903       -0.723616725       -0.213710062
              1.44      -0.727412523       -0.206245077        0.178526904       -0.629652391        0.178526904       -0.629652391       -0.727412523       -0.206245077
              1.46       -0.73099849       -0.198731436        0.171256073        -0.62993522        0.171256073        -0.62993522        -0.73099849       -0.198731436
              1.48      -0.734376952       -0.191170948        0.164067195       -0.630258769        0.164067195       -0.630258769       -0.734376952       -0.191170948
               1.5      -0.737550009       -0.183565219        0.156953474       -0.630626198        0.156953474       -0.630626198       -0.737550009       -0.183565219
              1.52      -0.740519531       -0.175915663        0.149908132       -0.631040455        0.149908132       -0.631040455       -0.740519531       -0.175915663
              1.54      -0.743287156        -0.16822352        0.142924405       -0.631504288        0.142924405       -0.631504288       -0.743287156        -0.16822352
              1.56      -0.745854282       -0.160489873        0.135995533       -0.632020257        0.135995533       -0.632020257       -0.745854282       -0.160489873
              1.58      -0.748222067        -0.15271566         0.12911476        -0.63259074         0.12911476        -0.63259074       -0.748222067        -0.15271566
               1.6      -0.750391421       -0.144901691         0.12227532       -0.633217941         0.12227532       -0.633217941       -0.750391421       -0.144901691
              1.62      -0.752363006        -0.13704866         0.11547043       -0.633903897         0.11547043       -0.633903897       -0.752363006        -0.13704866
              1.64       -0.75413723        -0.12915716        0.108693286       -0.634650483        0.108693286       -0.634650483        -0.75413723        -0.12915716
              1.66      -0.755714242       -0.121227695         0.10193705       -0.635459415         0.10193705       -0.635459415       -0.755714242       -0.121227695
              1.68       -0.75709393       -0.113260697       0.0951948389       -0.636332255       0.0951948389       -0.636332255        -0.75709393       -0.113260697
               1.7      -0.758275912       -0.105256535       0.0884597212       -0.637270414       0.0884597212       -0.637270414       -0.758275912       -0.105256535
              1.72      -0.759259538      -0.0972155332       0.0817247014        -0.63827515       0.0817247014        -0.63827515       -0.759259538      -0.0972155332
              1.74      -0.760043879      -0.0891379805       0.0749827119        -0.63934757       0.0749827119        -0.63934757       -0.760043879      -0.0891379805
              1.76      -0.760627725      -0.0810241474       0.0682266019       -0.640488628       0.0682266019       -0.640488628       -0.760627725      -0.0810241474
              1.78      -0.761009577      -0.0728742987       0.0614491263       -0.641699124       0.0614491263       -0.641699124       -0.761009577      -0.0728742987
               1.8      -0.761187644       -0.064688709       0.0546429345       -0.642979698       0.0546429345       -0.642979698       -0.761187644       -0.064688709
              1.82      -0.761159834      -0.0564676775       0.0478005587       -0.644330827       0.0478005587       -0.644330827       -0.761159834      -0.0564676775
              1.84      -0.760923751      -0.0482115439       0.0409144022       -0.645752819       0.0409144022       -0.645752819       -0.760923751      -0.0482115439
              1.86      -0.760476685      -0.0399207049        0.033976727       -0.647245804        0.033976727       -0.647245804       -0.760476685      -0.0399207049
              1.88      -0.759815606      -0.0315956316       0.0269796421       -0.648809726       0.0269796421       -0.648809726       -0.759815606      -0.0315956316
               1.9      -0.758937158      -0.0232368883       0.0199150906        -0.65044433       0.0199150906        -0.65044433       -0.758937158      -0.0232368883
              1.92      -0.757837651      -0.0148451511       0.0127748374       -0.652149155       0.0127748374       -0.652149155       -0.757837651      -0.0148451511
              1.94      -0.756513052      -0.0064212295      0.00555045672       -0.653923514      0.00555045672       -0.653923514       -0.756513052      -0.0064212295
              1.96      -0.754958981      0.00203391208     -0.00176668058       -0.655766482     -0.00176668058       -0.655766482       -0.754958981      0.00203391208
              1.98      -0.753170698       0.0105191304     -0.00918541955       -0.657676878     -0.00918541955       -0.657676878       -0.753170698       0.0105191304
                 2        -0.7511431       0.0190330782      -0.0167148334       -0.659653242      -0.0167148334       -0.659653242         -0.7511431       0.0190330782
              2.02      -0.748870711       0.0275741769      -0.0243642355       -0.661693816      -0.0243642355       -0.661693816       -0.748870711       0.0275741769
              2.04      -0.746347676       0.0361405874      -0.0321431913       -0.663796519      -0.0321431913       -0.663796519       -0.746347676       0.0361405874
              2.06      -0.743567754       0.0447301786      -0.0400615293       -0.665958918      -0.0400615293       -0.665958918       -0.743567754       0.0447301786
              2.08      -0.740524309       0.0533404934      -0.0481293515       -0.668178198      -0.0481293515       -0.668178198       -0.740524309       0.0533404934
               2.1      -0.737210309       0.0619687124      -0.0563570435       -0.670451133      -0.0563570435       -0.670451133       -0.737210309       0.0619687124
              2.12      -0.733618319       0.0706116141      -0.0647552821       -0.672774045      -0.0647552821       -0.672774045       -0.733618319       0.0706116141
              2.14      -0.729740496       0.0792655326      -0.0733350435       -0.675142767      -0.0733350435       -0.675142767       -0.729740496       0.0792655326
              2.16       -0.72556859       0.0879263118      -0.0821076078         -0.6775526      -0.0821076078         -0.6775526        -0.72556859       0.0879263118
              2.18      -0.721093943       0.0965892564      -0.0910845634       -0.679998267      -0.0910845634       -0.679998267       -0.721093943       0.0965892564
               2.2      -0.716307491        0.105249078       -0.100277807       -0.682473861       -0.100277807       -0.682473861       -0.716307491        0.105249078
              2.22       -0.71119977        0.113899839       -0.109699544       -0.684972791       -0.109699544       -0.684972791        -0.71119977        0.113899839
              2.24      -0.705760922        0.122534891       -0.119362281       -0.687487721       -0.119362281       -0.687487721       -0.705760922        0.122534891
              2.26      -0.699980711         0.13114681       -0.129278816       -0.690010511       -0.129278816       -0.690010511       -0.699980711         0.13114681
              2.28      -0.693848536        0.139727324       -0.139462229       -0.692532144       -0.139462229       -0.692532144       -0.693848536        0.139727324
               2.3      -0.687353454        0.148267242       -0.149925859       -0.695042654       -0.149925859       -0.695042654       -0.687353454        0.148267242
