! Created Thu Dec 17 11:37:09 2020
# ghz S ri R 50
! 2 Port Network Data from SP1.SP block
! freq  reS11  imS11  reS21  imS21  reS12  imS12  reS22  imS22  
!     
                 0                 0                  0                  1                  0                  1                  0                  0                  0
              0.01   -0.000145251161      -0.0108598204        0.999851591       -0.013373113        0.999851591       -0.013373113    -0.000145251161      -0.0108598204
              0.02   -0.000580754874      -0.0217091038        0.999406611      -0.0267358001        0.999406611      -0.0267358001    -0.000580754874      -0.0217091038
              0.03    -0.00130576288      -0.0325373431        0.998665808      -0.0400776652        0.998665808      -0.0400776652     -0.00130576288      -0.0325373431
              0.04    -0.00231903161      -0.0433340901        0.997630423      -0.0533883711        0.997630423      -0.0533883711     -0.00231903161      -0.0433340901
              0.05    -0.00361882742      -0.0540889849        0.996302184      -0.0666576692        0.996302184      -0.0666576692     -0.00361882742      -0.0540889849
              0.06    -0.00520293394      -0.0647917846        0.994683301      -0.0798754277        0.994683301      -0.0798754277     -0.00520293394      -0.0647917846
              0.07    -0.00706866127       -0.075432391         0.99277646      -0.0930316595         0.99277646      -0.0930316595     -0.00706866127       -0.075432391
              0.08     -0.0092128573      -0.0860008778        0.990584802        -0.10611655        0.990584802        -0.10611655      -0.0092128573      -0.0860008778
              0.09     -0.0116319206      -0.0964875166        0.988111921       -0.119120481        0.988111921       -0.119120481      -0.0116319206      -0.0964875166
               0.1     -0.0143218153       -0.106882802        0.985361842        -0.13203406        0.985361842        -0.13203406      -0.0143218153       -0.106882802
              0.11     -0.0172780874       -0.117177475        0.982339006        -0.14484814        0.982339006        -0.14484814      -0.0172780874       -0.117177475
              0.12     -0.0204958827       -0.127362546        0.979048256       -0.157553841        0.979048256       -0.157553841      -0.0204958827       -0.127362546
              0.13     -0.0239699658       -0.137429314        0.975494812       -0.170142575        0.975494812       -0.170142575      -0.0239699658       -0.137429314
              0.14     -0.0276947409       -0.147369387        0.971684255       -0.182606063        0.971684255       -0.182606063      -0.0276947409       -0.147369387
              0.15      -0.031664273       -0.157174702        0.967622502       -0.194936352        0.967622502       -0.194936352       -0.031664273       -0.157174702
              0.16     -0.0358723108       -0.166837535        0.963315786       -0.207125832        0.963315786       -0.207125832      -0.0358723108       -0.166837535
              0.17     -0.0403123093        -0.17635052        0.958770634       -0.219167249        0.958770634       -0.219167249      -0.0403123093        -0.17635052
              0.18     -0.0449774542        -0.18570666        0.953993839       -0.231053718        0.953993839       -0.231053718      -0.0449774542        -0.18570666
              0.19     -0.0498606861       -0.194899336        0.948992438       -0.242778734        0.948992438       -0.242778734      -0.0498606861       -0.194899336
               0.2     -0.0549547249       -0.203922318        0.943773688        -0.25433618        0.943773688        -0.25433618      -0.0549547249       -0.203922318
              0.21     -0.0602520949        -0.21276977         0.93834504       -0.265720334         0.93834504       -0.265720334      -0.0602520949        -0.21276977
              0.22     -0.0657451496       -0.221436258        0.932714115       -0.276925873        0.932714115       -0.276925873      -0.0657451496       -0.221436258
              0.23     -0.0714260962       -0.229916748        0.926888678       -0.287947879        0.926888678       -0.287947879      -0.0714260962       -0.229916748
              0.24     -0.0772870206       -0.238206613        0.920876614       -0.298781838        0.920876614       -0.298781838      -0.0772870206       -0.238206613
              0.25     -0.0833199106       -0.246301631        0.914685907       -0.309423643        0.914685907       -0.309423643      -0.0833199106       -0.246301631
              0.26     -0.0895166807       -0.254197982        0.908324609       -0.319869589        0.908324609       -0.319869589      -0.0895166807       -0.254197982
              0.27     -0.0958691942       -0.261892247        0.901800826       -0.330116372        0.901800826       -0.330116372      -0.0958691942       -0.261892247
              0.28      -0.102369286       -0.269381403        0.895122687       -0.340161085        0.895122687       -0.340161085       -0.102369286       -0.269381403
              0.29      -0.109008784       -0.276662818        0.888298331       -0.350001208        0.888298331       -0.350001208       -0.109008784       -0.276662818
               0.3      -0.115779529        -0.28373424        0.881335877        -0.35963461        0.881335877        -0.35963461       -0.115779529        -0.28373424
              0.31      -0.122673398       -0.290593796        0.874243414        -0.36905953        0.874243414        -0.36905953       -0.122673398       -0.290593796
              0.32      -0.129682316       -0.297239975        0.867028972       -0.378274576        0.867028972       -0.378274576       -0.129682316       -0.297239975
              0.33      -0.136798283       -0.303671622        0.859700515       -0.387278711        0.859700515       -0.387278711       -0.136798283       -0.303671622
              0.34      -0.144013383        -0.30988793        0.852265913       -0.396071243        0.852265913       -0.396071243       -0.144013383        -0.30988793
              0.35      -0.151319802       -0.315888419        0.844732937       -0.404651812        0.844732937       -0.404651812       -0.151319802       -0.315888419
              0.36      -0.158709845       -0.321672935        0.837109237       -0.413020379        0.837109237       -0.413020379       -0.158709845       -0.321672935
              0.37      -0.166175946       -0.327241626         0.82940233       -0.421177216         0.82940233       -0.421177216       -0.166175946       -0.327241626
              0.38      -0.173710683        -0.33259494        0.821619592       -0.429122885        0.821619592       -0.429122885       -0.173710683        -0.33259494
              0.39      -0.181306785         -0.3377336        0.813768241       -0.436858232        0.813768241       -0.436858232       -0.181306785         -0.3377336
               0.4      -0.188957147       -0.342658598        0.805855332       -0.444384367        0.805855332       -0.444384367       -0.188957147       -0.342658598
              0.41      -0.196654838       -0.347371179        0.797887742       -0.451702657        0.797887742       -0.451702657       -0.196654838       -0.347371179
              0.42      -0.204393104       -0.351872823         0.78987217       -0.458814702         0.78987217       -0.458814702       -0.204393104       -0.351872823
              0.43      -0.212165382       -0.356165237        0.781815122       -0.465722331        0.781815122       -0.465722331       -0.212165382       -0.356165237
              0.44        -0.2199653       -0.360250334        0.773722913       -0.472427579        0.773722913       -0.472427579         -0.2199653       -0.360250334
              0.45      -0.227786686       -0.364130224        0.765601655       -0.478932679        0.765601655       -0.478932679       -0.227786686       -0.364130224
              0.46      -0.235623568       -0.367807199        0.757457257       -0.485240046        0.757457257       -0.485240046       -0.235623568       -0.367807199
              0.47      -0.243470181       -0.371283715        0.749295423        -0.49135226        0.749295423        -0.49135226       -0.243470181       -0.371283715
              0.48      -0.251320967       -0.374562386        0.741121644       -0.497272057        0.741121644       -0.497272057       -0.251320967       -0.374562386
              0.49      -0.259170577       -0.377645964        0.732941204       -0.503002316        0.732941204       -0.503002316       -0.259170577       -0.377645964
               0.5       -0.26701387       -0.380537328        0.724759173       -0.508546042        0.724759173       -0.508546042        -0.26701387       -0.380537328
              0.51      -0.274845917       -0.383239473        0.716580412       -0.513906354        0.716580412       -0.513906354       -0.274845917       -0.383239473
              0.52      -0.282661996       -0.385755498        0.708409571       -0.519086479        0.708409571       -0.519086479       -0.282661996       -0.385755498
              0.53      -0.290457593       -0.388088591        0.700251087       -0.524089732        0.700251087       -0.524089732       -0.290457593       -0.388088591
              0.54      -0.298228401       -0.390242021        0.692109195        -0.52891951        0.692109195        -0.52891951       -0.298228401       -0.390242021
              0.55      -0.305970316       -0.392219127        0.683987919        -0.53357928        0.683987919        -0.53357928       -0.305970316       -0.392219127
              0.56      -0.313679433       -0.394023306        0.675891085       -0.538072569        0.675891085       -0.538072569       -0.313679433       -0.394023306
              0.57      -0.321352047       -0.395658003        0.667822316       -0.542402951        0.667822316       -0.542402951       -0.321352047       -0.395658003
              0.58      -0.328984646       -0.397126704         0.65978504       -0.546574043         0.65978504       -0.546574043       -0.328984646       -0.397126704
              0.59      -0.336573908       -0.398432924        0.651782495       -0.550589492        0.651782495       -0.550589492       -0.336573908       -0.398432924
               0.6      -0.344116696       -0.399580202        0.643817728       -0.554452969        0.643817728       -0.554452969       -0.344116696       -0.399580202
              0.61      -0.351610058       -0.400572091        0.635893603       -0.558168158        0.635893603       -0.558168158       -0.351610058       -0.400572091
              0.62      -0.359051214        -0.40141215        0.628012807       -0.561738753        0.628012807       -0.561738753       -0.359051214        -0.40141215
              0.63       -0.36643756       -0.402103938         0.62017785       -0.565168446         0.62017785       -0.565168446        -0.36643756       -0.402103938
              0.64      -0.373766657       -0.402651007        0.612391074       -0.568460927        0.612391074       -0.568460927       -0.373766657       -0.402651007
              0.65      -0.381036229       -0.403056897        0.604654658       -0.571619868        0.604654658       -0.571619868       -0.381036229       -0.403056897
              0.66      -0.388244156        -0.40332513         0.59697062        -0.57464893         0.59697062        -0.57464893       -0.388244156        -0.40332513
              0.67       -0.39538847       -0.403459203        0.589340826       -0.577551746        0.589340826       -0.577551746        -0.39538847       -0.403459203
              0.68      -0.402467349       -0.403462585        0.581766991       -0.580331925        0.581766991       -0.580331925       -0.402467349       -0.403462585
              0.69      -0.409479113       -0.403338713        0.574250689        -0.58299304        0.574250689        -0.58299304       -0.409479113       -0.403338713
               0.7      -0.416422215       -0.403090985        0.566793355       -0.585538632        0.566793355       -0.585538632       -0.416422215       -0.403090985
              0.71      -0.423295241       -0.402722761         0.55939629         -0.5879722         0.55939629         -0.5879722       -0.423295241       -0.402722761
              0.72        -0.4300969       -0.402237354        0.552060671       -0.590297199        0.552060671       -0.590297199         -0.4300969       -0.402237354
              0.73      -0.436826023       -0.401638033        0.544787549        -0.59251704        0.544787549        -0.59251704       -0.436826023       -0.401638033
              0.74      -0.443481553       -0.400928015        0.537577859       -0.594635084        0.537577859       -0.594635084       -0.443481553       -0.400928015
              0.75      -0.450062545       -0.400110467        0.530432425       -0.596654642        0.530432425       -0.596654642       -0.450062545       -0.400110467
              0.76      -0.456568157         -0.3991885        0.523351962       -0.598578969        0.523351962       -0.598578969       -0.456568157         -0.3991885
              0.77      -0.462997647        -0.39816517        0.516337084       -0.600411269        0.516337084       -0.600411269       -0.462997647        -0.39816517
              0.78      -0.469350368       -0.397043475        0.509388306       -0.602154685        0.509388306       -0.602154685       -0.469350368       -0.397043475
              0.79      -0.475625763       -0.395826355         0.50250605       -0.603812305         0.50250605       -0.603812305       -0.475625763       -0.395826355
               0.8      -0.481823361       -0.394516687        0.495690652       -0.605387157        0.495690652       -0.605387157       -0.481823361       -0.394516687
              0.81      -0.487942771       -0.393117291         0.48894236       -0.606882209         0.48894236       -0.606882209       -0.487942771       -0.393117291
              0.82      -0.493983681       -0.391630923        0.482261345       -0.608300368        0.482261345       -0.608300368       -0.493983681       -0.391630923
              0.83      -0.499945849       -0.390060277        0.475647702       -0.609644479        0.475647702       -0.609644479       -0.499945849       -0.390060277
              0.84      -0.505829104       -0.388407985        0.469101454       -0.610917328        0.469101454       -0.610917328       -0.505829104       -0.388407985
              0.85      -0.511633337       -0.386676614        0.462622554       -0.612121635        0.462622554       -0.612121635       -0.511633337       -0.386676614
              0.86      -0.517358502       -0.384868672        0.456210896       -0.613260062        0.456210896       -0.613260062       -0.517358502       -0.384868672
              0.87      -0.523004609         -0.3829866        0.449866308       -0.614335208        0.449866308       -0.614335208       -0.523004609         -0.3829866
              0.88      -0.528571722       -0.381032779        0.443588565       -0.615349608        0.443588565       -0.615349608       -0.528571722       -0.381032779
              0.89      -0.534059955       -0.379009527        0.437377386        -0.61630574        0.437377386        -0.61630574       -0.534059955       -0.379009527
               0.9      -0.539469468         -0.3769191        0.431232442       -0.617206016        0.431232442       -0.617206016       -0.539469468         -0.3769191
              0.91      -0.544800466       -0.374763691        0.425153354       -0.618052791        0.425153354       -0.618052791       -0.544800466       -0.374763691
              0.92      -0.550053195       -0.372545435        0.419139701        -0.61884836        0.419139701        -0.61884836       -0.550053195       -0.372545435
              0.93      -0.555227935       -0.370266403        0.413191019       -0.619594958        0.413191019       -0.619594958       -0.555227935       -0.370266403
              0.94      -0.560325007       -0.367928611        0.407306807        -0.62029476        0.407306807        -0.62029476       -0.560325007       -0.367928611
              0.95      -0.565344759       -0.365534011        0.401486525       -0.620949886        0.401486525       -0.620949886       -0.565344759       -0.365534011
              0.96      -0.570287571       -0.363084502        0.395729601       -0.621562397        0.395729601       -0.621562397       -0.570287571       -0.363084502
              0.97      -0.575153851       -0.360581923        0.390035433       -0.622134299        0.390035433       -0.622134299       -0.575153851       -0.360581923
              0.98      -0.579944031       -0.358028056        0.384403387       -0.622667542        0.384403387       -0.622667542       -0.579944031       -0.358028056
              0.99      -0.584658564       -0.355424631        0.378832805       -0.623164024        0.378832805       -0.623164024       -0.584658564       -0.355424631
                 1      -0.589297927       -0.352773322           0.373323       -0.623625588           0.373323       -0.623625588       -0.589297927       -0.352773322
              1.01      -0.593862614       -0.350075748        0.367873267       -0.624054025        0.367873267       -0.624054025       -0.593862614       -0.350075748
              1.02      -0.598353134        -0.34733348        0.362482876       -0.624451075        0.362482876       -0.624451075       -0.598353134        -0.34733348
              1.03      -0.602770015       -0.344548035        0.357151079       -0.624818428        0.357151079       -0.624818428       -0.602770015       -0.344548035
              1.04      -0.607113793       -0.341720879        0.351877111       -0.625157726        0.351877111       -0.625157726       -0.607113793       -0.341720879
              1.05      -0.611385021       -0.338853432        0.346660188       -0.625470561        0.346660188       -0.625470561       -0.611385021       -0.338853432
              1.06      -0.615584256       -0.335947064        0.341499514       -0.625758481        0.341499514       -0.625758481       -0.615584256       -0.335947064
              1.07      -0.619712068       -0.333003099        0.336394278       -0.626022985        0.336394278       -0.626022985       -0.619712068       -0.333003099
              1.08      -0.623769033       -0.330022815        0.331343658       -0.626265531        0.331343658       -0.626265531       -0.623769033       -0.330022815
              1.09      -0.627755731       -0.327007445         0.32634682        -0.62648753         0.32634682        -0.62648753       -0.627755731       -0.327007445
               1.1      -0.631672748       -0.323958181        0.321402921       -0.626690353        0.321402921       -0.626690353       -0.631672748       -0.323958181
              1.11      -0.635520673       -0.320876168        0.316511109       -0.626875328        0.316511109       -0.626875328       -0.635520673       -0.320876168
              1.12      -0.639300097       -0.317762514        0.311670524       -0.627043743        0.311670524       -0.627043743       -0.639300097       -0.317762514
              1.13      -0.643011611       -0.314618283        0.306880299       -0.627196848        0.306880299       -0.627196848       -0.643011611       -0.314618283
              1.14      -0.646655808       -0.311444504        0.302139563       -0.627335853        0.302139563       -0.627335853       -0.646655808       -0.311444504
              1.15      -0.650233278       -0.308242163        0.297447438       -0.627461931        0.297447438       -0.627461931       -0.650233278       -0.308242163
