! Created Mon Dec 14 13:19:03 2020
# ghz S ri R 50
! 2 Port Network Data from SP1.SP block
! freq  reS11  imS11  reS21  imS21  reS12  imS12  reS22  imS22  
!     
                 0    1.00997306e-06                  0         0.99999899                  0         0.99999899                  0     1.00997306e-06                  0
               0.1                 0    -1.42108547e-16        0.809016994       -0.587785252        0.809016994       -0.587785252     2.22044605e-16     1.73472348e-16
               0.2    2.22044605e-16    -7.10542736e-17        0.309016994       -0.951056516        0.309016994       -0.951056516                  0    -2.16840434e-17
               0.3                 0    -7.10542736e-17       -0.309016994       -0.951056516       -0.309016994       -0.951056516                  0    -2.16840434e-17
               0.4   -3.33066907e-16                  0       -0.809016994       -0.587785252       -0.809016994       -0.587785252    -2.22044605e-16                  0
               0.5                 0                  0                 -1              1e-10                 -1              1e-10                  0                  0
               0.6                 0    -1.42108547e-16       -0.809016994        0.587785252       -0.809016994        0.587785252                  0                  0
               0.7                 0     7.10542736e-17       -0.309016994        0.951056516       -0.309016994        0.951056516                  0     2.16840434e-17
               0.8    2.22044605e-16                  0        0.309016994        0.951056516        0.309016994        0.951056516                  0                  0
               0.9   -2.22044605e-16                  0        0.809016994        0.587785252        0.809016994        0.587785252                  0                  0
                 1                 0                  0                  1             -1e-10                  1             -1e-10                  0                  0
               1.1   -3.33066907e-16                  0        0.809016994       -0.587785252        0.809016994       -0.587785252                  0     8.67361738e-17
               1.2    2.22044605e-16                  0        0.309016994       -0.951056516        0.309016994       -0.951056516     2.22044605e-16     2.16840434e-17
               1.3    2.22044605e-16                  0       -0.309016994       -0.951056516       -0.309016994       -0.951056516                  0                  0
               1.4                 0     1.42108547e-16       -0.809016994       -0.587785252       -0.809016994       -0.587785252                  0                  0
               1.5                 0                  0                 -1             -1e-10                 -1             -1e-10                  0                  0
               1.6    2.22044605e-16                  0       -0.809016994        0.587785252       -0.809016994        0.587785252                  0                  0
               1.7                 0                  0       -0.309016994        0.951056516       -0.309016994        0.951056516    -2.22044605e-16    -2.16840434e-17
               1.8                 0     7.10542736e-17        0.309016994        0.951056516        0.309016994        0.951056516     2.22044605e-16    -4.33680869e-17
               1.9                 0     1.42108547e-16        0.809016994        0.587785252        0.809016994        0.587785252    -2.22044605e-16     8.67361738e-17
                 2                 0                  0                  1             -1e-10                  1             -1e-10                  0                  0
               2.1   -2.22044605e-16     1.42108547e-16        0.809016994       -0.587785252        0.809016994       -0.587785252                  0     8.67361738e-17
               2.2                 0     7.10542736e-17        0.309016994       -0.951056516        0.309016994       -0.951056516    -2.22044605e-16    -4.33680869e-17
               2.3                 0     7.10542736e-17       -0.309016994       -0.951056516       -0.309016994       -0.951056516                  0    -2.16840434e-17
               2.4   -3.33066907e-16    -1.42108547e-16       -0.809016994       -0.587785252       -0.809016994       -0.587785252                  0                  0
               2.5                 0                  0                 -1              1e-10                 -1              1e-10                  0                  0
               2.6   -2.22044605e-16                  0       -0.809016994        0.587785252       -0.809016994        0.587785252                  0                  0
               2.7                 0                  0       -0.309016994        0.951056516       -0.309016994        0.951056516                  0                  0
               2.8                 0                  0        0.309016994        0.951056516        0.309016994        0.951056516     2.22044605e-16    -2.16840434e-17
               2.9                 0                  0        0.809016994        0.587785252        0.809016994        0.587785252                  0                  0
                 3                 0                  0                  1              1e-10                  1              1e-10                  0                  0
               3.1   -2.22044605e-16    -1.42108547e-16        0.809016994       -0.587785252        0.809016994       -0.587785252                  0                  0
               3.2                 0                  0        0.309016994       -0.951056516        0.309016994       -0.951056516     2.22044605e-16     2.16840434e-17
               3.3                 0     7.10542736e-17       -0.309016994       -0.951056516       -0.309016994       -0.951056516     2.22044605e-16                  0
               3.4                 0     1.42108547e-16       -0.809016994       -0.587785252       -0.809016994       -0.587785252    -2.22044605e-16                  0
               3.5                 0                  0                 -1              1e-10                 -1              1e-10                  0                  0
               3.6                 0                  0       -0.809016994        0.587785252       -0.809016994        0.587785252                  0                  0
               3.7                 0                  0       -0.309016994        0.951056516       -0.309016994        0.951056516     2.22044605e-16     2.16840434e-17
               3.8                 0    -1.42108547e-16        0.309016994        0.951056516        0.309016994        0.951056516    -2.22044605e-16    -2.16840434e-17
               3.9   -2.22044605e-16    -1.42108547e-16        0.809016994        0.587785252        0.809016994        0.587785252     2.22044605e-16    -1.73472348e-16
                 4                 0                  0                  1             -1e-10                  1             -1e-10                  0                  0
               4.1   -3.33066907e-16    -1.42108547e-16        0.809016994       -0.587785252        0.809016994       -0.587785252    -2.22044605e-16    -8.67361738e-17
               4.2    2.22044605e-16    -7.10542736e-17        0.309016994       -0.951056516        0.309016994       -0.951056516     2.22044605e-16     4.33680869e-17
               4.3                 0                  0       -0.309016994       -0.951056516       -0.309016994       -0.951056516    -2.22044605e-16                  0
               4.4                 0                  0       -0.809016994       -0.587785252       -0.809016994       -0.587785252                  0                  0
               4.5                 0                  0                 -1              1e-10                 -1              1e-10                  0                  0
               4.6                 0    -1.42108547e-16       -0.809016994        0.587785252       -0.809016994        0.587785252                  0                  0
               4.7    2.22044605e-16                  0       -0.309016994        0.951056516       -0.309016994        0.951056516                  0     2.16840434e-17
               4.8                 0     7.10542736e-17        0.309016994        0.951056516        0.309016994        0.951056516     2.22044605e-16    -2.16840434e-17
               4.9   -3.33066907e-16                  0        0.809016994        0.587785252        0.809016994        0.587785252    -2.22044605e-16    -8.67361738e-17
                 5                 0                  0                  1             -1e-10                  1             -1e-10                  0                  0
               5.1   -3.33066907e-16                  0        0.809016994       -0.587785252        0.809016994       -0.587785252     2.22044605e-16     8.67361738e-17
               5.2    2.22044605e-16    -7.10542736e-17        0.309016994       -0.951056516        0.309016994       -0.951056516                  0                  0
               5.3                 0     7.10542736e-17       -0.309016994       -0.951056516       -0.309016994       -0.951056516     2.22044605e-16    -4.33680869e-17
               5.4                 0    -1.42108547e-16       -0.809016994       -0.587785252       -0.809016994       -0.587785252                  0                  0
               5.5                 0                  0                 -1              1e-10                 -1              1e-10                  0                  0
               5.6                 0    -1.42108547e-16       -0.809016994        0.587785252       -0.809016994        0.587785252    -2.22044605e-16    -8.67361738e-17
               5.7    2.22044605e-16                  0       -0.309016994        0.951056516       -0.309016994        0.951056516                  0                  0
               5.8    2.22044605e-16    -7.10542736e-17        0.309016994        0.951056516        0.309016994        0.951056516     2.22044605e-16    -4.33680869e-17
               5.9                 0                  0        0.809016994        0.587785252        0.809016994        0.587785252                  0                  0
                 6                 0                  0                  1              1e-10                  1              1e-10                  0                  0
               6.1    2.22044605e-16    -1.42108547e-16        0.809016994       -0.587785252        0.809016994       -0.587785252     2.22044605e-16                  0
               6.2    2.22044605e-16                  0        0.309016994       -0.951056516        0.309016994       -0.951056516     2.22044605e-16     4.33680869e-17
               6.3                 0                  0       -0.309016994       -0.951056516       -0.309016994       -0.951056516                  0                  0
               6.4    2.22044605e-16    -1.42108547e-16       -0.809016994       -0.587785252       -0.809016994       -0.587785252                  0                  0
               6.5                 0                  0                 -1              1e-10                 -1              1e-10                  0                  0
               6.6    2.22044605e-16    -2.84217094e-16       -0.809016994        0.587785252       -0.809016994        0.587785252    -2.22044605e-16    -2.60208521e-16
               6.7    2.22044605e-16                  0       -0.309016994        0.951056516       -0.309016994        0.951056516                  0                  0
               6.8    2.22044605e-16                  0        0.309016994        0.951056516        0.309016994        0.951056516     2.22044605e-16    -2.16840434e-17
               6.9                 0                  0        0.809016994        0.587785252        0.809016994        0.587785252                  0     8.67361738e-17
                 7                 0                  0                  1             -1e-10                  1             -1e-10                  0                  0
               7.1   -3.33066907e-16    -1.42108547e-16        0.809016994       -0.587785252        0.809016994       -0.587785252    -2.22044605e-16    -8.67361738e-17
               7.2                 0    -7.10542736e-17        0.309016994       -0.951056516        0.309016994       -0.951056516     2.22044605e-16                  0
               7.3                 0                  0       -0.309016994       -0.951056516       -0.309016994       -0.951056516    -2.22044605e-16     2.16840434e-17
               7.4   -3.33066907e-16     1.42108547e-16       -0.809016994       -0.587785252       -0.809016994       -0.587785252    -2.22044605e-16     8.67361738e-17
               7.5                 0                  0                 -1             -1e-10                 -1             -1e-10                  0                  0
               7.6   -3.33066907e-16     1.42108547e-16       -0.809016994        0.587785252       -0.809016994        0.587785252    -2.22044605e-16     8.67361738e-17
               7.7                 0    -7.10542736e-17       -0.309016994        0.951056516       -0.309016994        0.951056516                  0    -2.16840434e-17
               7.8                 0                  0        0.309016994        0.951056516        0.309016994        0.951056516                  0    -2.16840434e-17
               7.9   -3.33066907e-16                  0        0.809016994        0.587785252        0.809016994        0.587785252    -2.22044605e-16                  0
                 8                 0                  0                  1             -1e-10                  1             -1e-10                  0                  0
               8.1                 0                  0        0.809016994       -0.587785252        0.809016994       -0.587785252                  0                  0
               8.2                 0     7.10542736e-17        0.309016994       -0.951056516        0.309016994       -0.951056516     2.22044605e-16     4.33680869e-17
               8.3                 0    -7.10542736e-17       -0.309016994       -0.951056516       -0.309016994       -0.951056516                  0    -2.16840434e-17
               8.4                 0                  0       -0.809016994       -0.587785252       -0.809016994       -0.587785252                  0                  0
               8.5                 0                  0                 -1              1e-10                 -1              1e-10                  0                  0
               8.6                 0                  0       -0.809016994        0.587785252       -0.809016994        0.587785252                  0                  0
