! Created Fri Dec 11 10:24:38 2020
# ghz S ri R 50
! 2 Port Network Data from SP1.SP block
! freq  reS11  imS11  reS21  imS21  reS12  imS12  reS22  imS22  
!     
                 0    1.00997306e-06                  0         0.99999899                  0         0.99999899                  0     1.00997306e-06                  0
             0.005   -3.33066907e-16      8.8817842e-18         0.99950656      -0.0314107591         0.99950656      -0.0314107591    -2.22044605e-16                  0
              0.01   -3.33066907e-16     -1.3500312e-15        0.998026728      -0.0627905195        0.998026728      -0.0627905195    -2.22044605e-16    -1.38777878e-15
             0.015   -2.22044605e-16    -7.10542736e-16        0.995561965      -0.0941083133        0.995561965      -0.0941083133    -2.22044605e-16     -6.9388939e-16
              0.02    2.22044605e-16                  0        0.992114701       -0.125333234        0.992114701       -0.125333234                  0                  0
             0.025    2.22044605e-16    -3.55271368e-17        0.987688341       -0.156434465        0.987688341       -0.156434465                  0                  0
              0.03    2.22044605e-16                  0        0.982287251       -0.187381315        0.982287251       -0.187381315                  0                  0
             0.035                 0     2.13162821e-16        0.975916762       -0.218143241        0.975916762       -0.218143241     2.22044605e-16     3.46944695e-16
              0.04    -4.4408921e-16                  0        0.968583161       -0.248689887        0.968583161       -0.248689887    -2.22044605e-16                  0
             0.045    2.22044605e-16     6.39488462e-16        0.960293686       -0.278991106        0.960293686       -0.278991106     2.22044605e-16      6.9388939e-16
              0.05                 0    -2.13162821e-16        0.951056516       -0.309016994        0.951056516       -0.309016994    -2.22044605e-16    -1.73472348e-16
             0.055     4.4408921e-16    -7.10542736e-17        0.940880769        -0.33873792        0.940880769        -0.33873792     2.22044605e-16                  0
              0.06                 0    -2.84217094e-16        0.929776486       -0.368124553        0.929776486       -0.368124553                  0    -1.73472348e-16
             0.065   -2.22044605e-16                  0        0.917754626       -0.397147891        0.917754626       -0.397147891                  0                  0
              0.07   -3.33066907e-16     1.42108547e-16        0.904827052       -0.425779292        0.904827052       -0.425779292    -2.22044605e-16                  0
             0.075                 0     1.42108547e-16        0.891006524         -0.4539905        0.891006524         -0.4539905     2.22044605e-16     1.73472348e-16
              0.08                 0     2.84217094e-16         0.87630668       -0.481753674         0.87630668       -0.481753674     2.22044605e-16     1.73472348e-16
             0.085   -3.33066907e-16                  0        0.860742027       -0.509041416        0.860742027       -0.509041416                  0                  0
              0.09                 0     1.42108547e-16        0.844327926       -0.535826795        0.844327926       -0.535826795                  0     1.73472348e-16
             0.095   -3.33066907e-16     1.42108547e-16        0.827080574       -0.562083378        0.827080574       -0.562083378                  0                  0
               0.1                 0    -1.42108547e-16        0.809016994       -0.587785252        0.809016994       -0.587785252     2.22044605e-16     1.73472348e-16
             0.105                 0    -1.42108547e-16        0.790155012       -0.612907054        0.790155012       -0.612907054     2.22044605e-16                  0
              0.11                 0                  0        0.770513243        -0.63742399        0.770513243        -0.63742399     2.22044605e-16                  0
             0.115   -3.33066907e-16                  0         0.75011107       -0.661311865         0.75011107       -0.661311865    -2.22044605e-16                  0
              0.12   -2.22044605e-16     2.84217094e-16        0.728968627       -0.684547106        0.728968627       -0.684547106     2.22044605e-16     1.73472348e-16
             0.125                 0                  0        0.707106781       -0.707106781        0.707106781       -0.707106781    -2.22044605e-16                  0
              0.13                 0                  0        0.684547106       -0.728968627        0.684547106       -0.728968627                  0                  0
             0.135   -2.22044605e-16                  0        0.661311865        -0.75011107        0.661311865        -0.75011107                  0                  0
              0.14                 0     1.42108547e-16         0.63742399       -0.770513243         0.63742399       -0.770513243    -2.22044605e-16                  0
             0.145                 0     1.42108547e-16        0.612907054       -0.790155012        0.612907054       -0.790155012                  0     4.33680869e-17
              0.15   -2.22044605e-16     1.42108547e-16        0.587785252       -0.809016994        0.587785252       -0.809016994                  0    -4.33680869e-17
             0.155                 0     1.42108547e-16        0.562083378       -0.827080574        0.562083378       -0.827080574                  0    -8.67361738e-17
              0.16                 0                  0        0.535826795       -0.844327926        0.535826795       -0.844327926                  0                  0
             0.165                 0                  0        0.509041416       -0.860742027        0.509041416       -0.860742027                  0                  0
              0.17                 0    -1.42108547e-16        0.481753674        -0.87630668        0.481753674        -0.87630668     2.22044605e-16     4.33680869e-17
             0.175                 0                  0          0.4539905       -0.891006524          0.4539905       -0.891006524    -2.22044605e-16    -8.67361738e-17
              0.18    2.22044605e-16     1.42108547e-16        0.425779292       -0.904827052        0.425779292       -0.904827052                  0                  0
             0.185   -2.22044605e-16     1.42108547e-16        0.397147891       -0.917754626        0.397147891       -0.917754626                  0    -4.33680869e-17
              0.19                 0                  0        0.368124553       -0.929776486        0.368124553       -0.929776486     2.22044605e-16     4.33680869e-17
             0.195    2.22044605e-16     7.10542736e-17         0.33873792       -0.940880769         0.33873792       -0.940880769     2.22044605e-16     6.50521303e-17
               0.2    2.22044605e-16    -7.10542736e-17        0.309016994       -0.951056516        0.309016994       -0.951056516                  0    -2.16840434e-17
             0.205                 0    -7.10542736e-17        0.278991106       -0.960293686        0.278991106       -0.960293686                  0                  0
              0.21    2.22044605e-16     7.10542736e-17        0.248689887       -0.968583161        0.248689887       -0.968583161    -2.22044605e-16    -2.16840434e-17
             0.215                 0                  0        0.218143241       -0.975916762        0.218143241       -0.975916762                  0                  0
              0.22                 0                  0        0.187381315       -0.982287251        0.187381315       -0.982287251    -2.22044605e-16                  0
             0.225     4.4408921e-16     3.55271368e-17        0.156434465       -0.987688341        0.156434465       -0.987688341                  0     1.08420217e-17
              0.23   -2.22044605e-16    -3.55271368e-17        0.125333234       -0.992114701        0.125333234       -0.992114701    -2.22044605e-16    -1.08420217e-17
             0.235   -2.22044605e-16                  0       0.0941083133       -0.995561965       0.0941083133       -0.995561965                  0                  0
              0.24                 0                  0       0.0627905195       -0.998026728       0.0627905195       -0.998026728    -2.22044605e-16    -1.08420217e-17
             0.245                 0                  0       0.0314107591        -0.99950656       0.0314107591        -0.99950656     2.22044605e-16     2.71050543e-18
              0.25                 0     1.26217745e-31     -3.8285687e-16                 -1     -3.8285687e-16                 -1                  0                  0
             0.255                 0      8.8817842e-18      -0.0314107591        -0.99950656      -0.0314107591        -0.99950656     2.22044605e-16    -5.42101086e-18
              0.26                 0    -1.77635684e-17      -0.0627905195       -0.998026728      -0.0627905195       -0.998026728    -2.22044605e-16     1.08420217e-17
             0.265    2.22044605e-16                  0      -0.0941083133       -0.995561965      -0.0941083133       -0.995561965                  0                  0
              0.27    2.22044605e-16                  0       -0.125333234       -0.992114701       -0.125333234       -0.992114701    -2.22044605e-16     1.08420217e-17
             0.275                 0                  0       -0.156434465       -0.987688341       -0.156434465       -0.987688341                  0                  0
              0.28   -2.22044605e-16                  0       -0.187381315       -0.982287251       -0.187381315       -0.982287251    -2.22044605e-16                  0
             0.285                 0                  0       -0.218143241       -0.975916762       -0.218143241       -0.975916762                  0    -2.16840434e-17
              0.29   -3.33066907e-16                  0       -0.248689887       -0.968583161       -0.248689887       -0.968583161                  0                  0
             0.295                 0                  0       -0.278991106       -0.960293686       -0.278991106       -0.960293686                  0                  0
               0.3                 0    -7.10542736e-17       -0.309016994       -0.951056516       -0.309016994       -0.951056516                  0    -2.16840434e-17
             0.305    2.22044605e-16                  0        -0.33873792       -0.940880769        -0.33873792       -0.940880769     2.22044605e-16    -2.16840434e-17
              0.31   -3.33066907e-16                  0       -0.368124553       -0.929776486       -0.368124553       -0.929776486     2.22044605e-16    -4.33680869e-17
             0.315                 0     1.42108547e-16       -0.397147891       -0.917754626       -0.397147891       -0.917754626                  0                  0
              0.32    2.22044605e-16    -1.42108547e-16       -0.425779292       -0.904827052       -0.425779292       -0.904827052                  0                  0
             0.325                 0    -2.84217094e-16         -0.4539905       -0.891006524         -0.4539905       -0.891006524                  0                  0
              0.33                 0                  0       -0.481753674        -0.87630668       -0.481753674        -0.87630668     2.22044605e-16    -4.33680869e-17
             0.335                 0                  0       -0.509041416       -0.860742027       -0.509041416       -0.860742027                  0    -4.33680869e-17
              0.34                 0     1.42108547e-16       -0.535826795       -0.844327926       -0.535826795       -0.844327926                  0    -8.67361738e-17
             0.345                 0                  0       -0.562083378       -0.827080574       -0.562083378       -0.827080574    -2.22044605e-16                  0
              0.35   -2.22044605e-16    -1.42108547e-16       -0.587785252       -0.809016994       -0.587785252       -0.809016994                  0     4.33680869e-17
             0.355                 0    -1.42108547e-16       -0.612907054       -0.790155012       -0.612907054       -0.790155012                  0                  0
              0.36                 0     2.84217094e-16        -0.63742399       -0.770513243        -0.63742399       -0.770513243                  0    -8.67361738e-17
             0.365                 0                  0       -0.661311865        -0.75011107       -0.661311865        -0.75011107                  0     8.67361738e-17
              0.37   -2.22044605e-16                  0       -0.684547106       -0.728968627       -0.684547106       -0.728968627                  0                  0
             0.375   -3.33066907e-16                  0       -0.707106781       -0.707106781       -0.707106781       -0.707106781    -2.22044605e-16     8.67361738e-17
              0.38                 0                  0       -0.728968627       -0.684547106       -0.728968627       -0.684547106                  0                  0
             0.385                 0     4.26325641e-16        -0.75011107       -0.661311865        -0.75011107       -0.661311865    -2.22044605e-16     2.60208521e-16
              0.39                 0                  0       -0.770513243        -0.63742399       -0.770513243        -0.63742399                  0     8.67361738e-17
             0.395    2.22044605e-16     1.42108547e-16       -0.790155012       -0.612907054       -0.790155012       -0.612907054    -2.22044605e-16     8.67361738e-17
               0.4   -3.33066907e-16                  0       -0.809016994       -0.587785252       -0.809016994       -0.587785252    -2.22044605e-16                  0
             0.405                 0    -1.42108547e-16       -0.827080574       -0.562083378       -0.827080574       -0.562083378     2.22044605e-16    -8.67361738e-17
              0.41                 0    -1.42108547e-16       -0.844327926       -0.535826795       -0.844327926       -0.535826795                  0    -1.73472348e-16
             0.415                 0                  0       -0.860742027       -0.509041416       -0.860742027       -0.509041416                  0                  0
              0.42   -2.22044605e-16     1.42108547e-16        -0.87630668       -0.481753674        -0.87630668       -0.481753674                  0     1.73472348e-16
             0.425                 0     1.42108547e-16       -0.891006524         -0.4539905       -0.891006524         -0.4539905                  0     1.73472348e-16
              0.43                 0                  0       -0.904827052       -0.425779292       -0.904827052       -0.425779292                  0                  0
             0.435   -2.22044605e-16                  0       -0.917754626       -0.397147891       -0.917754626       -0.397147891                  0                  0
              0.44   -2.22044605e-16                  0       -0.929776486       -0.368124553       -0.929776486       -0.368124553    -2.22044605e-16                  0
             0.445                 0                  0       -0.940880769        -0.33873792       -0.940880769        -0.33873792                  0                  0
              0.45   -2.22044605e-16                  0       -0.951056516       -0.309016994       -0.951056516       -0.309016994                  0                  0
             0.455   -2.22044605e-16     6.39488462e-16       -0.960293686       -0.278991106       -0.960293686       -0.278991106    -2.22044605e-16      6.9388939e-16
              0.46   -2.22044605e-16                  0       -0.968583161       -0.248689887       -0.968583161       -0.248689887    -2.22044605e-16                  0
             0.465   -2.22044605e-16    -2.84217094e-16       -0.975916762       -0.218143241       -0.975916762       -0.218143241                  0    -3.46944695e-16
              0.47   -2.22044605e-16     7.10542736e-17       -0.982287251       -0.187381315       -0.982287251       -0.187381315    -2.22044605e-16                  0
             0.475                 0     6.39488462e-16       -0.987688341       -0.156434465       -0.987688341       -0.156434465    -2.22044605e-16      6.9388939e-16
              0.48   -3.33066907e-16    -6.75015599e-16       -0.992114701       -0.125333234       -0.992114701       -0.125333234    -2.22044605e-16     -6.9388939e-16
             0.485    2.22044605e-16    -1.38555833e-15       -0.995561965      -0.0941083133       -0.995561965      -0.0941083133     2.22044605e-16    -1.38777878e-15
              0.49   -2.22044605e-16     1.38555833e-15       -0.998026728      -0.0627905195       -0.998026728      -0.0627905195    -2.22044605e-16     1.38777878e-15
             0.495   -3.33066907e-16                  0        -0.99950656      -0.0314107591        -0.99950656      -0.0314107591    -2.22044605e-16                  0
               0.5                 0                  0                 -1              1e-10                 -1              1e-10                  0                  0
             0.505    2.22044605e-16                  0        -0.99950656       0.0314107591        -0.99950656       0.0314107591                  0                  0
              0.51                 0                  0       -0.998026728       0.0627905195       -0.998026728       0.0627905195    -2.22044605e-16                  0
             0.515   -5.55111512e-16    -6.75015599e-16       -0.995561965       0.0941083133       -0.995561965       0.0941083133    -2.22044605e-16     -6.9388939e-16
              0.52    2.22044605e-16                  0       -0.992114701        0.125333234       -0.992114701        0.125333234     2.22044605e-16                  0
             0.525    -4.4408921e-16     3.55271368e-17       -0.987688341        0.156434465       -0.987688341        0.156434465                  0                  0
              0.53   -2.22044605e-16     2.84217094e-16       -0.982287251        0.187381315       -0.982287251        0.187381315     2.22044605e-16     3.46944695e-16
             0.535                 0                  0       -0.975916762        0.218143241       -0.975916762        0.218143241                  0                  0
              0.54                 0    -3.55271368e-16       -0.968583161        0.248689887       -0.968583161        0.248689887                  0    -3.46944695e-16
             0.545                 0                  0       -0.960293686        0.278991106       -0.960293686        0.278991106    -2.22044605e-16                  0
              0.55    2.22044605e-16     2.13162821e-16       -0.951056516        0.309016994       -0.951056516        0.309016994     2.22044605e-16     1.73472348e-16
             0.555     4.4408921e-16    -7.10542736e-17       -0.940880769         0.33873792       -0.940880769         0.33873792     2.22044605e-16                  0
              0.56   -2.22044605e-16    -1.42108547e-16       -0.929776486        0.368124553       -0.929776486        0.368124553                  0    -1.73472348e-16
             0.565   -3.33066907e-16     2.84217094e-16       -0.917754626        0.397147891       -0.917754626        0.397147891                  0     1.73472348e-16
              0.57   -3.33066907e-16     1.42108547e-16       -0.904827052        0.425779292       -0.904827052        0.425779292                  0                  0
             0.575   -2.22044605e-16     1.42108547e-16       -0.891006524          0.4539905       -0.891006524          0.4539905                  0     1.73472348e-16
